
T0FB8 000:086 SEGGER J-Link V6.22c Log File (0000ms, 0031ms total)
T0FB8 000:086 DLL Compiled: Dec  8 2017 15:39:39 (0000ms, 0031ms total)
T0FB8 000:086 Logging started @ 2019-05-06 18:17 (0000ms, 0031ms total)
T0FB8 000:086 JLINK_SetWarnOutHandler(...) (0000ms, 0031ms total)
T0FB8 000:086 JLINK_OpenEx(...)
Firmware: J-Link V9 compiled Dec  1 2017 14:40:21
Hardware: V9.30
S/N: 269308664
OEM: SEGGER-EDU
Feature(s): FlashBP, GDB
TELNET listener socket opened on port 19021WEBSRV 
Starting webserver (0017ms, 0048ms total)
T0FB8 000:086 WEBSRV Webserver running on local port 19080 (0017ms, 0048ms total)
T0FB8 000:086   returns O.K. (0017ms, 0048ms total)
T0FB8 000:103 JLINK_SetErrorOutHandler(...) (0000ms, 0048ms total)
T0FB8 000:103 JLINK_ExecCommand("ProjectFile = "C:\Users\Admin\Documents\GitHub\AutoMATiC\ExampleForDoktorat_Simulation\Autogenerated_Controller\MDK-ARM\JLinkSettings.ini"", ...). C:\Program Files (x86)\SEGGER\JLink_V622c\JLinkDevices.xml evaluated successfully.Device "STM32F746IG" selected.  returns 0x00 (0170ms, 0218ms total)
T0FB8 000:278 JLINK_ExecCommand("Device = STM32F746IGTx", ...). Device "STM32F746IG" selected.  returns 0x00 (0011ms, 0229ms total)
T0FB8 000:289 JLINK_ExecCommand("DisableConnectionTimeout", ...).   returns 0x01 (0000ms, 0229ms total)
T0FB8 000:289 JLINK_GetHardwareVersion()  returns 0x16B48 (0000ms, 0229ms total)
T0FB8 000:289 JLINK_GetDLLVersion()  returns 62203 (0000ms, 0229ms total)
T0FB8 000:299 JLINK_GetDLLVersion()  returns 62203 (0000ms, 0229ms total)
T0FB8 000:299 JLINK_GetCompileDateTime() (0000ms, 0229ms total)
T0FB8 000:302 JLINK_GetFirmwareString(...) (0000ms, 0229ms total)
T0FB8 000:305 JLINK_GetHardwareVersion()  returns 0x16B48 (0000ms, 0229ms total)
T0FB8 000:324 JLINK_TIF_Select(JLINKARM_TIF_JTAG)  returns 0x00 (0001ms, 0230ms total)
T0FB8 000:325 JLINK_SetSpeed(5000) (0000ms, 0230ms total)
T0FB8 000:325 JLINK_GetIdData(...) >0x2F8 JTAG>TotalIRLen = 9, IRPrint = 0x0011 >0x30 JTAG> >0x50 JTAG>JTAG chain detection found 2 devices: #0 Id: 0x5BA00477, IRLen: 04, CoreSight JTAG-DP #1 Id: 0x06449041, IRLen: 05, Unknown device >0x40 JTAG> >0x40 JTAG> >0x40 JTAG> >0x30 JTAG> >0x40 JTAG> >0x40 JTAG> >0x40 JTAG> >0x40 JTAG> >0x40 JTAG> >0x40 JTAG> >0x40 JTAG> >0x40 JTAG> >0x40 JTAG> >0x40 JTAG> >0x40 JTAG> >0x40 JTAG> >0x40 JTAG> >0x40 JTAG> >0x40 JTAG> >0x40 JTAG> >0x40 JTAG> >0x40 JTAG> >0x40 JTAG>
 >0x40 JTAG> >0x2F8 JTAG>TotalIRLen = 9, IRPrint = 0x0011 >0x30 JTAG> >0x50 JTAG>JTAG chain detection found 2 devices: #0 Id: 0x5BA00477, IRLen: 04, CoreSight JTAG-DP #1 Id: 0x06449041, IRLen: 05, Unknown deviceScanning AP map to find all available APs >0x80 JTAG> >0x50 JTAG> >0x40 JTAG> >0x40 JTAG> >0x50 JTAG> >0x40 JTAG>AP[1]: Stopped AP scan as end of AP map has been reachedAP[0]: AHB-AP (IDR: 0x74770001)Iterating through AP map to find AHB-AP to use >0x80 JTAG> >0x50 JTAG> >0x50 JTAG> >0x80 JTAG>
 >0x40 JTAG> >0x30 JTAG> >0x40 JTAG> >0x40 JTAG>AP[0]: Core foundAP[0]: AHB-AP ROM base: 0xE00FD000 >0x40 JTAG> >0x40 JTAG> >0x30 JTAG> >0x40 JTAG> >0x40 JTAG>CPUID register: 0x410FC271. Implementer code: 0x41 (ARM)Found Cortex-M7 r0p1, Little endian. -- CPU_ReadMem(4 bytes @ 0xE000EDF0) -- CPU_WriteMem(4 bytes @ 0xE000EDF0) -- CPU_ReadMem(4 bytes @ 0xE0002000)FPUnit: 8 code (BP) slots and 0 literal slots -- CPU_ReadMem(4 bytes @ 0xE000EDFC) -- CPU_WriteMem(4 bytes @ 0xE000EDFC)
 -- CPU_ReadMem(4 bytes @ 0xE0001000) -- CPU_WriteMem(4 bytes @ 0xE0001000) -- CPU_ReadMem(4 bytes @ 0xE000ED88) -- CPU_WriteMem(4 bytes @ 0xE000ED88) -- CPU_ReadMem(4 bytes @ 0xE000ED88) -- CPU_WriteMem(4 bytes @ 0xE000ED88)CoreSight components:ROMTbl[0] @ E00FD000 -- CPU_ReadMem(16 bytes @ 0xE00FD000) -- CPU_ReadMem(16 bytes @ 0xE00FEFF0) -- CPU_ReadMem(16 bytes @ 0xE00FEFE0)ROMTbl[0][0]: E00FE000, CID: B105100D, PID: 000BB4C8 ROM TableROMTbl[1] @ E00FE000 -- CPU_ReadMem(16 bytes @ 0xE00FE000)
 -- CPU_ReadMem(16 bytes @ 0xE00FFFF0) -- CPU_ReadMem(16 bytes @ 0xE00FFFE0)ROMTbl[1][0]: E00FF000, CID: B105100D, PID: 000BB4C7 ROM TableROMTbl[2] @ E00FF000 -- CPU_ReadMem(16 bytes @ 0xE00FF000) -- CPU_ReadMem(16 bytes @ 0xE000EFF0) -- CPU_ReadMem(16 bytes @ 0xE000EFE0)ROMTbl[2][0]: E000E000, CID: B105E00D, PID: 000BB00C SCS-M7 -- CPU_ReadMem(16 bytes @ 0xE0001FF0) -- CPU_ReadMem(16 bytes @ 0xE0001FE0)ROMTbl[2][1]: E0001000, CID: B105E00D, PID: 000BB002 DWT -- CPU_ReadMem(16 bytes @ 0xE0002FF0)
 -- CPU_ReadMem(16 bytes @ 0xE0002FE0)ROMTbl[2][2]: E0002000, CID: B105E00D, PID: 000BB00E FPB-M7 -- CPU_ReadMem(16 bytes @ 0xE0000FF0) -- CPU_ReadMem(16 bytes @ 0xE0000FE0)ROMTbl[2][3]: E0000000, CID: B105E00D, PID: 000BB001 ITM -- CPU_ReadMem(16 bytes @ 0xE00FF010) -- CPU_ReadMem(16 bytes @ 0xE0041FF0) -- CPU_ReadMem(16 bytes @ 0xE0041FE0)ROMTbl[1][1]: E0041000, CID: B105900D, PID: 000BB975 ETM-M7 -- CPU_ReadMem(16 bytes @ 0xE00FE010) -- CPU_ReadMem(16 bytes @ 0xE0040FF0)
 -- CPU_ReadMem(16 bytes @ 0xE0040FE0)ROMTbl[0][1]: E0040000, CID: B105900D, PID: 000BB9A9 TPIU-M7 -- CPU_ReadMem(16 bytes @ 0xE00FD010) -- CPU_ReadMem(4 bytes @ 0xE000ED78)Cache: Separate I- and D-cache. (0126ms, 0356ms total)
T0FB8 000:325  -- CPU_WriteMem(4 bytes @ 0xE000ED84) -- CPU_ReadMem(4 bytes @ 0xE000ED80)I-Cache L1: 4 KB, 64 Sets, 32 Bytes/Line, 2-Way -- CPU_WriteMem(4 bytes @ 0xE000ED84) -- CPU_ReadMem(4 bytes @ 0xE000ED80)D-Cache L1: 4 KB, 32 Sets, 32 Bytes/Line, 4-Way ScanLen=9 NumDevices=2 aId[0]=0x5BA00477 aIrRead[0]=0 aScanLen[0]=0 aScanRead[0]=0 (0134ms, 0364ms total)
T0FB8 000:459 JLINK_JTAG_GetDeviceID(DeviceIndex = 0)  returns 0x5BA00477 (0000ms, 0364ms total)
T0FB8 000:459 JLINK_JTAG_GetDeviceInfo(DeviceIndex = 0)  returns 0x00 (0000ms, 0364ms total)
T0FB8 000:459 JLINK_JTAG_GetDeviceID(DeviceIndex = 1)  returns 0x6449041 (0000ms, 0364ms total)
T0FB8 000:459 JLINK_JTAG_GetDeviceInfo(DeviceIndex = 1)  returns 0x01 (0000ms, 0364ms total)
T0FB8 000:459 JLINK_GetDLLVersion()  returns 62203 (0000ms, 0364ms total)
T0FB8 000:459 JLINK_CORE_GetFound()  returns 0xE0100FF (0000ms, 0364ms total)
T0FB8 000:460 JLINK_GetDebugInfo(0x100 = JLINKARM_ROM_TABLE_ADDR_INDEX) -- Value=0xE00FD000  returns 0x00 (0000ms, 0364ms total)
T0FB8 000:463 JLINK_GetDebugInfo(0x100 = JLINKARM_ROM_TABLE_ADDR_INDEX) -- Value=0xE00FD000  returns 0x00 (0000ms, 0364ms total)
T0FB8 000:463 JLINK_GetDebugInfo(0x101 = JLINKARM_DEBUG_INFO_ETM_ADDR_INDEX) -- Value=0xE0041000  returns 0x00 (0000ms, 0364ms total)
T0FB8 000:463 JLINK_GetDebugInfo(0x102 = JLINKARM_DEBUG_INFO_MTB_ADDR_INDEX) -- Value=0x00000000  returns 0x00 (0000ms, 0364ms total)
T0FB8 000:463 JLINK_GetDebugInfo(0x103 = JLINKARM_DEBUG_INFO_TPIU_ADDR_INDEX) -- Value=0xE0040000  returns 0x00 (0000ms, 0364ms total)
T0FB8 000:463 JLINK_GetDebugInfo(0x104 = JLINKARM_DEBUG_INFO_ITM_ADDR_INDEX) -- Value=0xE0000000  returns 0x00 (0000ms, 0364ms total)
T0FB8 000:463 JLINK_GetDebugInfo(0x105 = JLINKARM_DEBUG_INFO_DWT_ADDR_INDEX) -- Value=0xE0001000  returns 0x00 (0000ms, 0364ms total)
T0FB8 000:463 JLINK_GetDebugInfo(0x106 = JLINKARM_DEBUG_INFO_FPB_ADDR_INDEX) -- Value=0xE0002000  returns 0x00 (0000ms, 0364ms total)
T0FB8 000:463 JLINK_GetDebugInfo(0x107 = JLINKARM_DEBUG_INFO_NVIC_ADDR_INDEX) -- Value=0xE000E000  returns 0x00 (0001ms, 0365ms total)
T0FB8 000:464 JLINK_GetDebugInfo(0x10C = JLINKARM_DEBUG_INFO_DBG_ADDR_INDEX) -- Value=0xE000EDF0  returns 0x00 (0000ms, 0365ms total)
T0FB8 000:464 JLINK_ReadMemU32(0xE000ED00, 0x0001 Items, ...) -- CPU_ReadMem(4 bytes @ 0xE000ED00) - Data: 71 C2 0F 41  returns 0x01 (0000ms, 0365ms total)
T0FB8 000:464 JLINK_ReadMemU32(0xE000EDF0, 0x0001 Items, ...) -- CPU_ReadMem(4 bytes @ 0xE000EDF0) - Data: 01 00 01 01  returns 0x01 (0000ms, 0365ms total)
T0FB8 000:464 JLINK_SetResetType(JLINKARM_CM3_RESET_TYPE_NORMAL)  returns JLINKARM_CM3_RESET_TYPE_NORMAL (0000ms, 0365ms total)
T0FB8 000:464 JLINK_Reset() -- CPU is running -- CPU_WriteMem(4 bytes @ 0xE000EDF0) -- CPU is running -- CPU_WriteMem(4 bytes @ 0xE000EDFC)Reset: Halt core after reset via DEMCR.VC_CORERESET.Reset: Reset device via AIRCR.SYSRESETREQ. -- CPU is running -- CPU_WriteMem(4 bytes @ 0xE000ED0C) -- CPU_ReadMem(4 bytes @ 0xE000EDF0) -- CPU_ReadMem(4 bytes @ 0xE000EDF0) -- CPU is running -- CPU_WriteMem(4 bytes @ 0xE000EDF0) -- CPU is running -- CPU_WriteMem(4 bytes @ 0xE000EDFC)
 -- CPU_ReadMem(4 bytes @ 0xE000EDF0) -- CPU_WriteMem(4 bytes @ 0xE000EDFC) -- CPU_WriteMem(4 bytes @ 0xE0001028) -- CPU_WriteMem(4 bytes @ 0xE0001038) -- CPU_WriteMem(4 bytes @ 0xE0001048) -- CPU_WriteMem(4 bytes @ 0xE0001058) -- CPU_WriteMem(4 bytes @ 0xE0002000) -- CPU_ReadMem(4 bytes @ 0xE000EDFC) -- CPU_ReadMem(4 bytes @ 0xE0001000) (0071ms, 0436ms total)
T0FB8 000:536 JLINK_Halt()  returns 0x00 (0000ms, 0436ms total)
T0FB8 000:536 JLINK_IsHalted()  returns TRUE (0000ms, 0436ms total)
T0FB8 000:536 JLINK_ReadMemU32(0xE000EDF0, 0x0001 Items, ...) -- CPU_ReadMem(4 bytes @ 0xE000EDF0) - Data: 03 00 03 00  returns 0x01 (0000ms, 0436ms total)
T0FB8 000:536 JLINK_WriteU32(0xE000EDF0, 0xA05F0003) -- CPU_WriteMem(4 bytes @ 0xE000EDF0)  returns 0x00 (0000ms, 0436ms total)
T0FB8 000:536 JLINK_WriteU32(0xE000EDFC, 0x01000000) -- CPU_WriteMem(4 bytes @ 0xE000EDFC)  returns 0x00 (0001ms, 0437ms total)
T0FB8 000:565 JLINK_GetHWStatus(...)  returns 0x00 (0000ms, 0437ms total)
T0FB8 000:586 JLINK_GetNumBPUnits(Type = 0xFFFFFF00)  returns 0x08 (0000ms, 0437ms total)
T0FB8 000:586 JLINK_GetNumBPUnits(Type = 0xF0)  returns 0x2000 (0000ms, 0437ms total)
T0FB8 000:586 JLINK_GetNumWPUnits()  returns 0x04 (0000ms, 0437ms total)
T0FB8 000:605 JLINK_GetSpeed()  returns 0x1388 (0001ms, 0438ms total)
T0FB8 000:619 JLINK_ReadMemU32(0xE000E004, 0x0001 Items, ...) -- CPU_ReadMem(4 bytes @ 0xE000E004) - Data: 03 00 00 00  returns 0x01 (0000ms, 0438ms total)
T0FB8 000:619 JLINK_ReadMemU32(0xE000E004, 0x0001 Items, ...) -- CPU_ReadMem(4 bytes @ 0xE000E004) - Data: 03 00 00 00  returns 0x01 (0001ms, 0439ms total)
T0FB8 000:620 JLINK_WriteMem(0xE0001000, 0x001C Bytes, ...) - Data: 01 00 00 00 00 00 00 00 00 00 00 00 00 00 00 00 ... -- CPU_WriteMem(28 bytes @ 0xE0001000)  returns 0x1C (0001ms, 0440ms total)
T0FB8 000:621 JLINK_ReadMem (0xE0001000, 0x001C Bytes, ...) -- CPU_ReadMem(28 bytes @ 0xE0001000) - Data: 01 00 00 40 00 00 00 00 00 00 00 00 00 00 00 00 ...  returns 0x00 (0001ms, 0441ms total)
T0FB8 000:622 JLINK_Halt()  returns 0x00 (0000ms, 0441ms total)
T0FB8 000:622 JLINK_IsHalted()  returns TRUE (0000ms, 0441ms total)
T0FB8 000:628 JLINK_WriteMem(0x20010000, 0x01A0 Bytes, ...) - Data: 00 BE 0A E0 0D 78 2D 06 68 40 08 24 40 00 00 D3 ... -- CPU_WriteMem(416 bytes @ 0x20010000)  returns 0x1A0 (0003ms, 0444ms total)
T0FB8 000:631 JLINK_WriteReg(R0, 0x08000000)  returns 0x00 (0000ms, 0444ms total)
T0FB8 000:631 JLINK_WriteReg(R1, 0x00B71B00)  returns 0x00 (0000ms, 0444ms total)
T0FB8 000:631 JLINK_WriteReg(R2, 0x00000001)  returns 0x00 (0000ms, 0444ms total)
T0FB8 000:631 JLINK_WriteReg(R3, 0x00000000)  returns 0x00 (0000ms, 0444ms total)
T0FB8 000:631 JLINK_WriteReg(R4, 0x00000000)  returns 0x00 (0000ms, 0444ms total)
T0FB8 000:631 JLINK_WriteReg(R5, 0x00000000)  returns 0x00 (0000ms, 0444ms total)
T0FB8 000:631 JLINK_WriteReg(R6, 0x00000000)  returns 0x00 (0000ms, 0444ms total)
T0FB8 000:631 JLINK_WriteReg(R7, 0x00000000)  returns 0x00 (0000ms, 0444ms total)
T0FB8 000:631 JLINK_WriteReg(R8, 0x00000000)  returns 0x00 (0000ms, 0444ms total)
T0FB8 000:632 JLINK_WriteReg(R9, 0x2001019C)  returns 0x00 (0000ms, 0445ms total)
T0FB8 000:632 JLINK_WriteReg(R10, 0x00000000)  returns 0x00 (0000ms, 0445ms total)
T0FB8 000:632 JLINK_WriteReg(R11, 0x00000000)  returns 0x00 (0000ms, 0445ms total)
T0FB8 000:632 JLINK_WriteReg(R12, 0x00000000)  returns 0x00 (0000ms, 0445ms total)
T0FB8 000:632 JLINK_WriteReg(R13 (SP), 0x20011000)  returns 0x00 (0000ms, 0445ms total)
T0FB8 000:632 JLINK_WriteReg(R14, 0x20010001)  returns 0x00 (0000ms, 0445ms total)
T0FB8 000:632 JLINK_WriteReg(R15 (PC), 0x2001005A)  returns 0x00 (0000ms, 0445ms total)
T0FB8 000:632 JLINK_WriteReg(XPSR, 0x01000000)  returns 0x00 (0000ms, 0445ms total)
T0FB8 000:632 JLINK_WriteReg(MSP, 0x20011000)  returns 0x00 (0000ms, 0445ms total)
T0FB8 000:632 JLINK_WriteReg(PSP, 0x20011000)  returns 0x00 (0000ms, 0445ms total)
T0FB8 000:632 JLINK_WriteReg(CFBP, 0x00000000)  returns 0x00 (0000ms, 0445ms total)
T0FB8 000:632 JLINK_SetBPEx(Addr = 0x20010000, Type = 0xFFFFFFF2)  returns 0x00000001 (0000ms, 0445ms total)
T0FB8 000:632 JLINK_Go() -- CPU_ReadMem(4 bytes @ 0xE0001000) -- CPU_WriteMem(4 bytes @ 0xE0002008) -- CPU_WriteMem(4 bytes @ 0xE000200C) -- CPU_WriteMem(4 bytes @ 0xE0002010) -- CPU_WriteMem(4 bytes @ 0xE0002014) -- CPU_WriteMem(4 bytes @ 0xE0002018) -- CPU_WriteMem(4 bytes @ 0xE000201C) -- CPU_WriteMem(4 bytes @ 0xE0002020) -- CPU_WriteMem(4 bytes @ 0xE0002024) -- CPU_WriteMem(4 bytes @ 0xE0001004) (0003ms, 0448ms total)
T0FB8 000:635 JLINK_IsHalted()  returns TRUE (0002ms, 0450ms total)
T0FB8 000:637 JLINK_ReadReg(R15 (PC))  returns 0x20010000 (0000ms, 0448ms total)
T0FB8 000:637 JLINK_ClrBPEx(BPHandle = 0x00000001)  returns 0x00 (0000ms, 0448ms total)
T0FB8 000:637 JLINK_ReadReg(R0)  returns 0x00000000 (0000ms, 0448ms total)
T0FB8 000:637 JLINK_WriteReg(R0, 0x08000000)  returns 0x00 (0000ms, 0448ms total)
T0FB8 000:637 JLINK_WriteReg(R1, 0x00008000)  returns 0x00 (0000ms, 0448ms total)
T0FB8 000:637 JLINK_WriteReg(R2, 0x000000FF)  returns 0x00 (0000ms, 0448ms total)
T0FB8 000:638 JLINK_WriteReg(R3, 0x00000000)  returns 0x00 (0000ms, 0449ms total)
T0FB8 000:638 JLINK_WriteReg(R4, 0x00000000)  returns 0x00 (0000ms, 0449ms total)
T0FB8 000:638 JLINK_WriteReg(R5, 0x00000000)  returns 0x00 (0000ms, 0449ms total)
T0FB8 000:638 JLINK_WriteReg(R6, 0x00000000)  returns 0x00 (0000ms, 0449ms total)
T0FB8 000:638 JLINK_WriteReg(R7, 0x00000000)  returns 0x00 (0000ms, 0449ms total)
T0FB8 000:638 JLINK_WriteReg(R8, 0x00000000)  returns 0x00 (0000ms, 0449ms total)
T0FB8 000:638 JLINK_WriteReg(R9, 0x2001019C)  returns 0x00 (0000ms, 0449ms total)
T0FB8 000:638 JLINK_WriteReg(R10, 0x00000000)  returns 0x00 (0000ms, 0449ms total)
T0FB8 000:638 JLINK_WriteReg(R11, 0x00000000)  returns 0x00 (0000ms, 0449ms total)
T0FB8 000:638 JLINK_WriteReg(R12, 0x00000000)  returns 0x00 (0000ms, 0449ms total)
T0FB8 000:638 JLINK_WriteReg(R13 (SP), 0x20011000)  returns 0x00 (0000ms, 0449ms total)
T0FB8 000:638 JLINK_WriteReg(R14, 0x20010001)  returns 0x00 (0000ms, 0449ms total)
T0FB8 000:638 JLINK_WriteReg(R15 (PC), 0x20010020)  returns 0x00 (0000ms, 0449ms total)
T0FB8 000:638 JLINK_WriteReg(XPSR, 0x01000000)  returns 0x00 (0000ms, 0449ms total)
T0FB8 000:638 JLINK_WriteReg(MSP, 0x20011000)  returns 0x00 (0000ms, 0449ms total)
T0FB8 000:638 JLINK_WriteReg(PSP, 0x20011000)  returns 0x00 (0000ms, 0449ms total)
T0FB8 000:638 JLINK_WriteReg(CFBP, 0x00000000)  returns 0x00 (0000ms, 0449ms total)
T0FB8 000:638 JLINK_SetBPEx(Addr = 0x20010000, Type = 0xFFFFFFF2)  returns 0x00000002 (0000ms, 0449ms total)
T0FB8 000:638 JLINK_Go() -- CPU_ReadMem(4 bytes @ 0xE0001000) (0002ms, 0451ms total)
T0FB8 000:640 JLINK_IsHalted()  returns TRUE (0001ms, 0452ms total)
T0FB8 000:641 JLINK_ReadReg(R15 (PC))  returns 0x20010000 (0000ms, 0451ms total)
T0FB8 000:641 JLINK_ClrBPEx(BPHandle = 0x00000002)  returns 0x00 (0000ms, 0451ms total)
T0FB8 000:641 JLINK_ReadReg(R0)  returns 0x00000001 (0000ms, 0451ms total)
T0FB8 000:641 JLINK_WriteReg(R0, 0x08000000)  returns 0x00 (0001ms, 0452ms total)
T0FB8 000:642 JLINK_WriteReg(R1, 0x00008000)  returns 0x00 (0000ms, 0452ms total)
T0FB8 000:642 JLINK_WriteReg(R2, 0x000000FF)  returns 0x00 (0000ms, 0452ms total)
T0FB8 000:642 JLINK_WriteReg(R3, 0x00000000)  returns 0x00 (0000ms, 0452ms total)
T0FB8 000:642 JLINK_WriteReg(R4, 0x00000000)  returns 0x00 (0000ms, 0452ms total)
T0FB8 000:642 JLINK_WriteReg(R5, 0x00000000)  returns 0x00 (0000ms, 0452ms total)
T0FB8 000:642 JLINK_WriteReg(R6, 0x00000000)  returns 0x00 (0000ms, 0452ms total)
T0FB8 000:642 JLINK_WriteReg(R7, 0x00000000)  returns 0x00 (0000ms, 0452ms total)
T0FB8 000:642 JLINK_WriteReg(R8, 0x00000000)  returns 0x00 (0000ms, 0452ms total)
T0FB8 000:642 JLINK_WriteReg(R9, 0x2001019C)  returns 0x00 (0000ms, 0452ms total)
T0FB8 000:642 JLINK_WriteReg(R10, 0x00000000)  returns 0x00 (0000ms, 0452ms total)
T0FB8 000:642 JLINK_WriteReg(R11, 0x00000000)  returns 0x00 (0000ms, 0452ms total)
T0FB8 000:642 JLINK_WriteReg(R12, 0x00000000)  returns 0x00 (0000ms, 0452ms total)
T0FB8 000:642 JLINK_WriteReg(R13 (SP), 0x20011000)  returns 0x00 (0000ms, 0452ms total)
T0FB8 000:642 JLINK_WriteReg(R14, 0x20010001)  returns 0x00 (0000ms, 0452ms total)
T0FB8 000:642 JLINK_WriteReg(R15 (PC), 0x200100C2)  returns 0x00 (0000ms, 0452ms total)
T0FB8 000:642 JLINK_WriteReg(XPSR, 0x01000000)  returns 0x00 (0000ms, 0452ms total)
T0FB8 000:642 JLINK_WriteReg(MSP, 0x20011000)  returns 0x00 (0000ms, 0452ms total)
T0FB8 000:642 JLINK_WriteReg(PSP, 0x20011000)  returns 0x00 (0000ms, 0452ms total)
T0FB8 000:642 JLINK_WriteReg(CFBP, 0x00000000)  returns 0x00 (0000ms, 0452ms total)
T0FB8 000:642 JLINK_SetBPEx(Addr = 0x20010000, Type = 0xFFFFFFF2)  returns 0x00000003 (0000ms, 0452ms total)
T0FB8 000:642 JLINK_Go() -- CPU_ReadMem(4 bytes @ 0xE0001000) (0002ms, 0454ms total)
T0FB8 000:644 JLINK_IsHalted()  returns FALSE (0000ms, 0454ms total)
T0FB8 000:701 JLINK_IsHalted()  returns FALSE (0000ms, 0454ms total)
T0FB8 000:703 JLINK_IsHalted()  returns FALSE (0000ms, 0454ms total)
T0FB8 000:705 JLINK_IsHalted()  returns FALSE (0000ms, 0454ms total)
T0FB8 000:707 JLINK_IsHalted()  returns FALSE (0000ms, 0454ms total)
T0FB8 000:709 JLINK_IsHalted()  returns FALSE (0000ms, 0454ms total)
T0FB8 000:711 JLINK_IsHalted()  returns FALSE (0000ms, 0454ms total)
T0FB8 000:713 JLINK_IsHalted()  returns FALSE (0000ms, 0454ms total)
T0FB8 000:715 JLINK_IsHalted()  returns FALSE (0000ms, 0454ms total)
T0FB8 000:718 JLINK_IsHalted()  returns FALSE (0000ms, 0454ms total)
T0FB8 000:720 JLINK_IsHalted()  returns FALSE (0000ms, 0454ms total)
T0FB8 000:722 JLINK_IsHalted()  returns FALSE (0000ms, 0454ms total)
T0FB8 000:724 JLINK_IsHalted()  returns FALSE (0000ms, 0454ms total)
T0FB8 000:726 JLINK_IsHalted()  returns FALSE (0000ms, 0454ms total)
T0FB8 000:728 JLINK_IsHalted()  returns FALSE (0000ms, 0454ms total)
T0FB8 000:730 JLINK_IsHalted()  returns FALSE (0000ms, 0454ms total)
T0FB8 000:732 JLINK_IsHalted()  returns FALSE (0000ms, 0454ms total)
T0FB8 000:734 JLINK_IsHalted()  returns FALSE (0000ms, 0454ms total)
T0FB8 000:737 JLINK_IsHalted()  returns FALSE (0000ms, 0454ms total)
T0FB8 000:739 JLINK_IsHalted()  returns FALSE (0000ms, 0454ms total)
T0FB8 000:741 JLINK_IsHalted()  returns FALSE (0000ms, 0454ms total)
T0FB8 000:743 JLINK_IsHalted()  returns FALSE (0000ms, 0454ms total)
T0FB8 000:745 JLINK_IsHalted()  returns FALSE (0000ms, 0454ms total)
T0FB8 000:747 JLINK_IsHalted()  returns FALSE (0000ms, 0454ms total)
T0FB8 000:749 JLINK_IsHalted()  returns FALSE (0000ms, 0454ms total)
T0FB8 000:751 JLINK_IsHalted()  returns FALSE (0000ms, 0454ms total)
T0FB8 000:753 JLINK_IsHalted()  returns FALSE (0000ms, 0454ms total)
T0FB8 000:755 JLINK_IsHalted()  returns FALSE (0000ms, 0454ms total)
T0FB8 000:757 JLINK_IsHalted()  returns FALSE (0000ms, 0454ms total)
T0FB8 000:759 JLINK_IsHalted()  returns FALSE (0000ms, 0454ms total)
T0FB8 000:761 JLINK_IsHalted()  returns FALSE (0000ms, 0454ms total)
T0FB8 000:763 JLINK_IsHalted()  returns FALSE (0000ms, 0454ms total)
T0FB8 000:765 JLINK_IsHalted()  returns FALSE (0000ms, 0454ms total)
T0FB8 000:767 JLINK_IsHalted()  returns FALSE (0000ms, 0454ms total)
T0FB8 000:769 JLINK_IsHalted()  returns FALSE (0000ms, 0454ms total)
T0FB8 000:771 JLINK_IsHalted()  returns FALSE (0000ms, 0454ms total)
T0FB8 000:775 JLINK_IsHalted()  returns FALSE (0000ms, 0454ms total)
T0FB8 000:777 JLINK_IsHalted()  returns FALSE (0000ms, 0454ms total)
T0FB8 000:784 JLINK_IsHalted()  returns FALSE (0000ms, 0454ms total)
T0FB8 000:790 JLINK_IsHalted()  returns FALSE (0000ms, 0454ms total)
T0FB8 000:792 JLINK_IsHalted()  returns FALSE (0000ms, 0454ms total)
T0FB8 000:797 JLINK_IsHalted()  returns FALSE (0000ms, 0454ms total)
T0FB8 000:799 JLINK_IsHalted()  returns FALSE (0000ms, 0454ms total)
T0FB8 000:840 JLINK_IsHalted()  returns FALSE (0000ms, 0454ms total)
T0FB8 000:842 JLINK_IsHalted()  returns FALSE (0000ms, 0454ms total)
T0FB8 000:845 JLINK_IsHalted()  returns FALSE (0000ms, 0454ms total)
T0FB8 000:847 JLINK_IsHalted()  returns FALSE (0000ms, 0454ms total)
T0FB8 000:851 JLINK_IsHalted()  returns FALSE (0000ms, 0454ms total)
T0FB8 000:853 JLINK_IsHalted()  returns FALSE (0000ms, 0454ms total)
T0FB8 000:855 JLINK_IsHalted()  returns FALSE (0000ms, 0454ms total)
T0FB8 000:882 JLINK_IsHalted()  returns FALSE (0000ms, 0454ms total)
T0FB8 000:884 JLINK_IsHalted()  returns FALSE (0000ms, 0454ms total)
T0FB8 000:886 JLINK_IsHalted()  returns FALSE (0000ms, 0454ms total)
T0FB8 000:888 JLINK_IsHalted()  returns FALSE (0000ms, 0454ms total)
T0FB8 000:891 JLINK_IsHalted()  returns FALSE (0000ms, 0454ms total)
T0FB8 000:893 JLINK_IsHalted()  returns FALSE (0000ms, 0454ms total)
T0FB8 000:895 JLINK_IsHalted()  returns FALSE (0000ms, 0454ms total)
T0FB8 000:897 JLINK_IsHalted()  returns FALSE (0000ms, 0454ms total)
T0FB8 000:899 JLINK_IsHalted()  returns FALSE (0000ms, 0454ms total)
T0FB8 000:901 JLINK_IsHalted()  returns FALSE (0000ms, 0454ms total)
T0FB8 000:903 JLINK_IsHalted()  returns FALSE (0000ms, 0454ms total)
T0FB8 000:905 JLINK_IsHalted()  returns FALSE (0000ms, 0454ms total)
T0FB8 000:907 JLINK_IsHalted()  returns FALSE (0000ms, 0454ms total)
T0FB8 000:909 JLINK_IsHalted()  returns FALSE (0000ms, 0454ms total)
T0FB8 000:911 JLINK_IsHalted()  returns FALSE (0000ms, 0454ms total)
T0FB8 000:921 JLINK_IsHalted()  returns FALSE (0000ms, 0454ms total)
T0FB8 000:925 JLINK_IsHalted()  returns FALSE (0000ms, 0454ms total)
T0FB8 000:927 JLINK_IsHalted()  returns FALSE (0000ms, 0454ms total)
T0FB8 000:929 JLINK_IsHalted()  returns FALSE (0000ms, 0454ms total)
T0FB8 000:931 JLINK_IsHalted()  returns FALSE (0000ms, 0454ms total)
T0FB8 000:933 JLINK_IsHalted()  returns FALSE (0000ms, 0454ms total)
T0FB8 000:935 JLINK_IsHalted()  returns FALSE (0000ms, 0454ms total)
T0FB8 000:937 JLINK_IsHalted()  returns FALSE (0000ms, 0454ms total)
T0FB8 000:939 JLINK_IsHalted()  returns FALSE (0000ms, 0454ms total)
T0FB8 000:941 JLINK_IsHalted()  returns FALSE (0000ms, 0454ms total)
T0FB8 000:943 JLINK_IsHalted()  returns FALSE (0000ms, 0454ms total)
T0FB8 000:945 JLINK_IsHalted()  returns FALSE (0000ms, 0454ms total)
T0FB8 000:947 JLINK_IsHalted()  returns FALSE (0000ms, 0454ms total)
T0FB8 000:949 JLINK_IsHalted()  returns FALSE (0000ms, 0454ms total)
T0FB8 000:951 JLINK_IsHalted()  returns FALSE (0000ms, 0454ms total)
T0FB8 000:953 JLINK_IsHalted()  returns FALSE (0000ms, 0454ms total)
T0FB8 000:955 JLINK_IsHalted()  returns FALSE (0000ms, 0454ms total)
T0FB8 000:957 JLINK_IsHalted()  returns FALSE (0000ms, 0454ms total)
T0FB8 000:959 JLINK_IsHalted()  returns FALSE (0000ms, 0454ms total)
T0FB8 000:961 JLINK_IsHalted()  returns FALSE (0000ms, 0454ms total)
T0FB8 000:963 JLINK_IsHalted()  returns FALSE (0000ms, 0454ms total)
T0FB8 000:965 JLINK_IsHalted()  returns FALSE (0000ms, 0454ms total)
T0FB8 000:967 JLINK_IsHalted()  returns FALSE (0000ms, 0454ms total)
T0FB8 000:969 JLINK_IsHalted()  returns FALSE (0000ms, 0454ms total)
T0FB8 000:971 JLINK_IsHalted()  returns FALSE (0000ms, 0454ms total)
T0FB8 000:973 JLINK_IsHalted()  returns FALSE (0000ms, 0454ms total)
T0FB8 000:975 JLINK_IsHalted()  returns FALSE (0000ms, 0454ms total)
T0FB8 000:977 JLINK_IsHalted()  returns FALSE (0000ms, 0454ms total)
T0FB8 000:979 JLINK_IsHalted()  returns FALSE (0000ms, 0454ms total)
T0FB8 000:981 JLINK_IsHalted()  returns FALSE (0000ms, 0454ms total)
T0FB8 000:983 JLINK_IsHalted()  returns FALSE (0000ms, 0454ms total)
T0FB8 000:985 JLINK_IsHalted()  returns FALSE (0000ms, 0454ms total)
T0FB8 000:987 JLINK_IsHalted()  returns FALSE (0000ms, 0454ms total)
T0FB8 000:989 JLINK_IsHalted()  returns FALSE (0000ms, 0454ms total)
T0FB8 000:991 JLINK_IsHalted()  returns FALSE (0000ms, 0454ms total)
T0FB8 000:993 JLINK_IsHalted()  returns FALSE (0000ms, 0454ms total)
T0FB8 000:995 JLINK_IsHalted()  returns FALSE (0000ms, 0454ms total)
T0FB8 000:997 JLINK_IsHalted()  returns FALSE (0000ms, 0454ms total)
T0FB8 000:999 JLINK_IsHalted()  returns FALSE (0000ms, 0454ms total)
T0FB8 001:001 JLINK_IsHalted()  returns FALSE (0000ms, 0454ms total)
T0FB8 001:003 JLINK_IsHalted()  returns FALSE (0000ms, 0454ms total)
T0FB8 001:005 JLINK_IsHalted()  returns FALSE (0000ms, 0454ms total)
T0FB8 001:007 JLINK_IsHalted()  returns FALSE (0000ms, 0454ms total)
T0FB8 001:009 JLINK_IsHalted()  returns TRUE (0001ms, 0455ms total)
T0FB8 001:010 JLINK_ReadReg(R15 (PC))  returns 0x20010000 (0000ms, 0454ms total)
T0FB8 001:011 JLINK_ClrBPEx(BPHandle = 0x00000003)  returns 0x00 (0000ms, 0455ms total)
T0FB8 001:011 JLINK_ReadReg(R0)  returns 0x00000000 (0000ms, 0455ms total)
T0FB8 001:011 JLINK_WriteReg(R0, 0x00000001)  returns 0x00 (0001ms, 0456ms total)
T0FB8 001:012 JLINK_WriteReg(R1, 0x00008000)  returns 0x00 (0000ms, 0456ms total)
T0FB8 001:012 JLINK_WriteReg(R2, 0x000000FF)  returns 0x00 (0000ms, 0456ms total)
T0FB8 001:012 JLINK_WriteReg(R3, 0x00000000)  returns 0x00 (0000ms, 0456ms total)
T0FB8 001:012 JLINK_WriteReg(R4, 0x00000000)  returns 0x00 (0000ms, 0456ms total)
T0FB8 001:012 JLINK_WriteReg(R5, 0x00000000)  returns 0x00 (0000ms, 0456ms total)
T0FB8 001:012 JLINK_WriteReg(R6, 0x00000000)  returns 0x00 (0000ms, 0456ms total)
T0FB8 001:012 JLINK_WriteReg(R7, 0x00000000)  returns 0x00 (0000ms, 0456ms total)
T0FB8 001:012 JLINK_WriteReg(R8, 0x00000000)  returns 0x00 (0000ms, 0456ms total)
T0FB8 001:012 JLINK_WriteReg(R9, 0x2001019C)  returns 0x00 (0000ms, 0456ms total)
T0FB8 001:012 JLINK_WriteReg(R10, 0x00000000)  returns 0x00 (0000ms, 0456ms total)
T0FB8 001:012 JLINK_WriteReg(R11, 0x00000000)  returns 0x00 (0000ms, 0456ms total)
T0FB8 001:012 JLINK_WriteReg(R12, 0x00000000)  returns 0x00 (0000ms, 0456ms total)
T0FB8 001:012 JLINK_WriteReg(R13 (SP), 0x20011000)  returns 0x00 (0000ms, 0456ms total)
T0FB8 001:012 JLINK_WriteReg(R14, 0x20010001)  returns 0x00 (0000ms, 0456ms total)
T0FB8 001:012 JLINK_WriteReg(R15 (PC), 0x20010088)  returns 0x00 (0000ms, 0456ms total)
T0FB8 001:012 JLINK_WriteReg(XPSR, 0x01000000)  returns 0x00 (0000ms, 0456ms total)
T0FB8 001:012 JLINK_WriteReg(MSP, 0x20011000)  returns 0x00 (0000ms, 0456ms total)
T0FB8 001:012 JLINK_WriteReg(PSP, 0x20011000)  returns 0x00 (0000ms, 0456ms total)
T0FB8 001:012 JLINK_WriteReg(CFBP, 0x00000000)  returns 0x00 (0000ms, 0456ms total)
T0FB8 001:012 JLINK_SetBPEx(Addr = 0x20010000, Type = 0xFFFFFFF2)  returns 0x00000004 (0001ms, 0457ms total)
T0FB8 001:013 JLINK_Go() -- CPU_ReadMem(4 bytes @ 0xE0001000) (0001ms, 0458ms total)
T0FB8 001:014 JLINK_IsHalted()  returns TRUE (0002ms, 0460ms total)
T0FB8 001:016 JLINK_ReadReg(R15 (PC))  returns 0x20010000 (0000ms, 0458ms total)
T0FB8 001:016 JLINK_ClrBPEx(BPHandle = 0x00000004)  returns 0x00 (0000ms, 0458ms total)
T0FB8 001:016 JLINK_ReadReg(R0)  returns 0x00000000 (0000ms, 0458ms total)
T0FB8 001:075 JLINK_WriteMem(0x20010000, 0x01A0 Bytes, ...) - Data: 00 BE 0A E0 0D 78 2D 06 68 40 08 24 40 00 00 D3 ... -- CPU_WriteMem(416 bytes @ 0x20010000)  returns 0x1A0 (0002ms, 0460ms total)
T0FB8 001:078 JLINK_WriteReg(R0, 0x08000000)  returns 0x00 (0000ms, 0460ms total)
T0FB8 001:078 JLINK_WriteReg(R1, 0x00B71B00)  returns 0x00 (0000ms, 0460ms total)
T0FB8 001:078 JLINK_WriteReg(R2, 0x00000002)  returns 0x00 (0000ms, 0460ms total)
T0FB8 001:078 JLINK_WriteReg(R3, 0x00000000)  returns 0x00 (0000ms, 0460ms total)
T0FB8 001:078 JLINK_WriteReg(R4, 0x00000000)  returns 0x00 (0000ms, 0460ms total)
T0FB8 001:078 JLINK_WriteReg(R5, 0x00000000)  returns 0x00 (0001ms, 0461ms total)
T0FB8 001:079 JLINK_WriteReg(R6, 0x00000000)  returns 0x00 (0000ms, 0461ms total)
T0FB8 001:079 JLINK_WriteReg(R7, 0x00000000)  returns 0x00 (0000ms, 0461ms total)
T0FB8 001:079 JLINK_WriteReg(R8, 0x00000000)  returns 0x00 (0000ms, 0461ms total)
T0FB8 001:079 JLINK_WriteReg(R9, 0x2001019C)  returns 0x00 (0000ms, 0461ms total)
T0FB8 001:079 JLINK_WriteReg(R10, 0x00000000)  returns 0x00 (0000ms, 0461ms total)
T0FB8 001:079 JLINK_WriteReg(R11, 0x00000000)  returns 0x00 (0001ms, 0462ms total)
T0FB8 001:080 JLINK_WriteReg(R12, 0x00000000)  returns 0x00 (0000ms, 0462ms total)
T0FB8 001:080 JLINK_WriteReg(R13 (SP), 0x20011000)  returns 0x00 (0000ms, 0462ms total)
T0FB8 001:080 JLINK_WriteReg(R14, 0x20010001)  returns 0x00 (0000ms, 0462ms total)
T0FB8 001:080 JLINK_WriteReg(R15 (PC), 0x2001005A)  returns 0x00 (0000ms, 0462ms total)
T0FB8 001:080 JLINK_WriteReg(XPSR, 0x01000000)  returns 0x00 (0000ms, 0462ms total)
T0FB8 001:080 JLINK_WriteReg(MSP, 0x20011000)  returns 0x00 (0000ms, 0462ms total)
T0FB8 001:081 JLINK_WriteReg(PSP, 0x20011000)  returns 0x00 (0000ms, 0463ms total)
T0FB8 001:081 JLINK_WriteReg(CFBP, 0x00000000)  returns 0x00 (0000ms, 0463ms total)
T0FB8 001:081 JLINK_SetBPEx(Addr = 0x20010000, Type = 0xFFFFFFF2)  returns 0x00000005 (0000ms, 0463ms total)
T0FB8 001:081 JLINK_Go() -- CPU_ReadMem(4 bytes @ 0xE0001000) (0002ms, 0465ms total)
T0FB8 001:083 JLINK_IsHalted()  returns TRUE (0002ms, 0467ms total)
T0FB8 001:085 JLINK_ReadReg(R15 (PC))  returns 0x20010000 (0001ms, 0466ms total)
T0FB8 001:086 JLINK_ClrBPEx(BPHandle = 0x00000005)  returns 0x00 (0000ms, 0466ms total)
T0FB8 001:086 JLINK_ReadReg(R0)  returns 0x00000000 (0000ms, 0466ms total)
T0FB8 001:087 JLINK_WriteMem(0x200101A0, 0x0260 Bytes, ...) - Data: 00 8A 04 20 DD 01 00 08 09 37 00 08 47 33 00 08 ... -- CPU_WriteMem(608 bytes @ 0x200101A0)  returns 0x260 (0004ms, 0470ms total)
T0FB8 001:091 JLINK_WriteMem(0x20010400, 0x01A0 Bytes, ...) - Data: 90 42 30 BD 30 B5 0B 46 01 46 00 20 20 22 01 24 ... -- CPU_WriteMem(416 bytes @ 0x20010400)  returns 0x1A0 (0003ms, 0473ms total)
T0FB8 001:095 JLINK_WriteReg(R0, 0x08000000)  returns 0x00 (0000ms, 0473ms total)
T0FB8 001:095 JLINK_WriteReg(R1, 0x00000400)  returns 0x00 (0000ms, 0473ms total)
T0FB8 001:095 JLINK_WriteReg(R2, 0x200101A0)  returns 0x00 (0000ms, 0473ms total)
T0FB8 001:095 JLINK_WriteReg(R3, 0x00000000)  returns 0x00 (0000ms, 0473ms total)
T0FB8 001:095 JLINK_WriteReg(R4, 0x00000000)  returns 0x00 (0000ms, 0473ms total)
T0FB8 001:095 JLINK_WriteReg(R5, 0x00000000)  returns 0x00 (0000ms, 0473ms total)
T0FB8 001:095 JLINK_WriteReg(R6, 0x00000000)  returns 0x00 (0000ms, 0473ms total)
T0FB8 001:096 JLINK_WriteReg(R7, 0x00000000)  returns 0x00 (0000ms, 0474ms total)
T0FB8 001:096 JLINK_WriteReg(R8, 0x00000000)  returns 0x00 (0000ms, 0474ms total)
T0FB8 001:096 JLINK_WriteReg(R9, 0x2001019C)  returns 0x00 (0000ms, 0474ms total)
T0FB8 001:096 JLINK_WriteReg(R10, 0x00000000)  returns 0x00 (0000ms, 0474ms total)
T0FB8 001:096 JLINK_WriteReg(R11, 0x00000000)  returns 0x00 (0000ms, 0474ms total)
T0FB8 001:096 JLINK_WriteReg(R12, 0x00000000)  returns 0x00 (0000ms, 0474ms total)
T0FB8 001:096 JLINK_WriteReg(R13 (SP), 0x20011000)  returns 0x00 (0001ms, 0475ms total)
T0FB8 001:097 JLINK_WriteReg(R14, 0x20010001)  returns 0x00 (0000ms, 0475ms total)
T0FB8 001:097 JLINK_WriteReg(R15 (PC), 0x20010112)  returns 0x00 (0000ms, 0475ms total)
T0FB8 001:097 JLINK_WriteReg(XPSR, 0x01000000)  returns 0x00 (0000ms, 0475ms total)
T0FB8 001:097 JLINK_WriteReg(MSP, 0x20011000)  returns 0x00 (0000ms, 0475ms total)
T0FB8 001:097 JLINK_WriteReg(PSP, 0x20011000)  returns 0x00 (0000ms, 0475ms total)
T0FB8 001:097 JLINK_WriteReg(CFBP, 0x00000000)  returns 0x00 (0000ms, 0475ms total)
T0FB8 001:097 JLINK_SetBPEx(Addr = 0x20010000, Type = 0xFFFFFFF2)  returns 0x00000006 (0001ms, 0476ms total)
T0FB8 001:098 JLINK_Go() -- CPU_ReadMem(4 bytes @ 0xE0001000) (0002ms, 0478ms total)
T0FB8 001:100 JLINK_IsHalted()  returns FALSE (0000ms, 0478ms total)
T0FB8 001:161 JLINK_IsHalted()  returns TRUE (0002ms, 0480ms total)
T0FB8 001:163 JLINK_ReadReg(R15 (PC))  returns 0x20010000 (0000ms, 0478ms total)
T0FB8 001:163 JLINK_ClrBPEx(BPHandle = 0x00000006)  returns 0x00 (0000ms, 0478ms total)
T0FB8 001:163 JLINK_ReadReg(R0)  returns 0x00000000 (0000ms, 0478ms total)
T0FB8 001:164 JLINK_WriteMem(0x200101A0, 0x0260 Bytes, ...) - Data: 00 19 51 41 32 46 2B 46 03 B0 BD E8 F0 4F 00 F0 ... -- CPU_WriteMem(608 bytes @ 0x200101A0)  returns 0x260 (0004ms, 0482ms total)
T0FB8 001:168 JLINK_WriteMem(0x20010400, 0x01A0 Bytes, ...) - Data: 02 F1 00 20 70 47 91 40 C2 F1 20 03 20 FA 03 F3 ... -- CPU_WriteMem(416 bytes @ 0x20010400)  returns 0x1A0 (0002ms, 0484ms total)
T0FB8 001:170 JLINK_WriteReg(R0, 0x08000400)  returns 0x00 (0000ms, 0484ms total)
T0FB8 001:170 JLINK_WriteReg(R1, 0x00000400)  returns 0x00 (0000ms, 0484ms total)
T0FB8 001:170 JLINK_WriteReg(R2, 0x200101A0)  returns 0x00 (0000ms, 0484ms total)
T0FB8 001:170 JLINK_WriteReg(R3, 0x00000000)  returns 0x00 (0000ms, 0484ms total)
T0FB8 001:170 JLINK_WriteReg(R4, 0x00000000)  returns 0x00 (0000ms, 0484ms total)
T0FB8 001:170 JLINK_WriteReg(R5, 0x00000000)  returns 0x00 (0000ms, 0484ms total)
T0FB8 001:170 JLINK_WriteReg(R6, 0x00000000)  returns 0x00 (0000ms, 0484ms total)
T0FB8 001:170 JLINK_WriteReg(R7, 0x00000000)  returns 0x00 (0001ms, 0485ms total)
T0FB8 001:171 JLINK_WriteReg(R8, 0x00000000)  returns 0x00 (0000ms, 0485ms total)
T0FB8 001:171 JLINK_WriteReg(R9, 0x2001019C)  returns 0x00 (0000ms, 0485ms total)
T0FB8 001:171 JLINK_WriteReg(R10, 0x00000000)  returns 0x00 (0000ms, 0485ms total)
T0FB8 001:171 JLINK_WriteReg(R11, 0x00000000)  returns 0x00 (0000ms, 0485ms total)
T0FB8 001:171 JLINK_WriteReg(R12, 0x00000000)  returns 0x00 (0000ms, 0485ms total)
T0FB8 001:171 JLINK_WriteReg(R13 (SP), 0x20011000)  returns 0x00 (0000ms, 0485ms total)
T0FB8 001:171 JLINK_WriteReg(R14, 0x20010001)  returns 0x00 (0000ms, 0485ms total)
T0FB8 001:171 JLINK_WriteReg(R15 (PC), 0x20010112)  returns 0x00 (0000ms, 0485ms total)
T0FB8 001:171 JLINK_WriteReg(XPSR, 0x01000000)  returns 0x00 (0000ms, 0485ms total)
T0FB8 001:171 JLINK_WriteReg(MSP, 0x20011000)  returns 0x00 (0000ms, 0485ms total)
T0FB8 001:171 JLINK_WriteReg(PSP, 0x20011000)  returns 0x00 (0000ms, 0485ms total)
T0FB8 001:171 JLINK_WriteReg(CFBP, 0x00000000)  returns 0x00 (0000ms, 0485ms total)
T0FB8 001:171 JLINK_SetBPEx(Addr = 0x20010000, Type = 0xFFFFFFF2)  returns 0x00000007 (0000ms, 0485ms total)
T0FB8 001:171 JLINK_Go() -- CPU_ReadMem(4 bytes @ 0xE0001000) (0001ms, 0486ms total)
T0FB8 001:172 JLINK_IsHalted()  returns FALSE (0001ms, 0487ms total)
T0FB8 001:175 JLINK_IsHalted()  returns FALSE (0000ms, 0486ms total)
T0FB8 001:177 JLINK_IsHalted()  returns TRUE (0001ms, 0487ms total)
T0FB8 001:178 JLINK_ReadReg(R15 (PC))  returns 0x20010000 (0000ms, 0486ms total)
T0FB8 001:178 JLINK_ClrBPEx(BPHandle = 0x00000007)  returns 0x00 (0000ms, 0486ms total)
T0FB8 001:178 JLINK_ReadReg(R0)  returns 0x00000000 (0000ms, 0486ms total)
T0FB8 001:179 JLINK_WriteMem(0x200101A0, 0x0260 Bytes, ...) - Data: A5 6B 28 46 00 F0 98 FA 70 BD 00 00 10 B5 02 48 ... -- CPU_WriteMem(608 bytes @ 0x200101A0)  returns 0x260 (0004ms, 0490ms total)
T0FB8 001:183 JLINK_WriteMem(0x20010400, 0x01A0 Bytes, ...) - Data: 01 20 00 E0 00 BF 15 E0 32 B1 01 2A 05 D0 02 2A ... -- CPU_WriteMem(416 bytes @ 0x20010400)  returns 0x1A0 (0003ms, 0493ms total)
T0FB8 001:186 JLINK_WriteReg(R0, 0x08000800)  returns 0x00 (0000ms, 0493ms total)
T0FB8 001:186 JLINK_WriteReg(R1, 0x00000400)  returns 0x00 (0000ms, 0493ms total)
T0FB8 001:186 JLINK_WriteReg(R2, 0x200101A0)  returns 0x00 (0000ms, 0493ms total)
T0FB8 001:186 JLINK_WriteReg(R3, 0x00000000)  returns 0x00 (0000ms, 0493ms total)
T0FB8 001:186 JLINK_WriteReg(R4, 0x00000000)  returns 0x00 (0000ms, 0493ms total)
T0FB8 001:186 JLINK_WriteReg(R5, 0x00000000)  returns 0x00 (0000ms, 0493ms total)
T0FB8 001:186 JLINK_WriteReg(R6, 0x00000000)  returns 0x00 (0000ms, 0493ms total)
T0FB8 001:186 JLINK_WriteReg(R7, 0x00000000)  returns 0x00 (0000ms, 0493ms total)
T0FB8 001:186 JLINK_WriteReg(R8, 0x00000000)  returns 0x00 (0000ms, 0493ms total)
T0FB8 001:186 JLINK_WriteReg(R9, 0x2001019C)  returns 0x00 (0000ms, 0493ms total)
T0FB8 001:186 JLINK_WriteReg(R10, 0x00000000)  returns 0x00 (0000ms, 0493ms total)
T0FB8 001:186 JLINK_WriteReg(R11, 0x00000000)  returns 0x00 (0000ms, 0493ms total)
T0FB8 001:186 JLINK_WriteReg(R12, 0x00000000)  returns 0x00 (0000ms, 0493ms total)
T0FB8 001:186 JLINK_WriteReg(R13 (SP), 0x20011000)  returns 0x00 (0000ms, 0493ms total)
T0FB8 001:186 JLINK_WriteReg(R14, 0x20010001)  returns 0x00 (0000ms, 0493ms total)
T0FB8 001:186 JLINK_WriteReg(R15 (PC), 0x20010112)  returns 0x00 (0000ms, 0493ms total)
T0FB8 001:186 JLINK_WriteReg(XPSR, 0x01000000)  returns 0x00 (0000ms, 0493ms total)
T0FB8 001:186 JLINK_WriteReg(MSP, 0x20011000)  returns 0x00 (0000ms, 0493ms total)
T0FB8 001:186 JLINK_WriteReg(PSP, 0x20011000)  returns 0x00 (0000ms, 0493ms total)
T0FB8 001:186 JLINK_WriteReg(CFBP, 0x00000000)  returns 0x00 (0000ms, 0493ms total)
T0FB8 001:186 JLINK_SetBPEx(Addr = 0x20010000, Type = 0xFFFFFFF2)  returns 0x00000008 (0000ms, 0493ms total)
T0FB8 001:186 JLINK_Go() -- CPU_ReadMem(4 bytes @ 0xE0001000) (0002ms, 0495ms total)
T0FB8 001:188 JLINK_IsHalted()  returns FALSE (0000ms, 0495ms total)
T0FB8 001:190 JLINK_IsHalted()  returns FALSE (0000ms, 0495ms total)
T0FB8 001:192 JLINK_IsHalted()  returns FALSE (0000ms, 0495ms total)
T0FB8 001:194 JLINK_IsHalted()  returns TRUE (0001ms, 0496ms total)
T0FB8 001:195 JLINK_ReadReg(R15 (PC))  returns 0x20010000 (0000ms, 0495ms total)
T0FB8 001:195 JLINK_ClrBPEx(BPHandle = 0x00000008)  returns 0x00 (0000ms, 0495ms total)
T0FB8 001:195 JLINK_ReadReg(R0)  returns 0x00000000 (0000ms, 0495ms total)
T0FB8 001:196 JLINK_WriteMem(0x200101A0, 0x0260 Bytes, ...) - Data: 08 68 12 28 05 D1 1B 48 00 68 40 F4 80 00 C3 F8 ... -- CPU_WriteMem(608 bytes @ 0x200101A0)  returns 0x260 (0004ms, 0499ms total)
T0FB8 001:200 JLINK_WriteMem(0x20010400, 0x01A0 Bytes, ...) - Data: 00 F0 01 00 50 B1 20 6C 40 F4 80 30 20 64 20 46 ... -- CPU_WriteMem(416 bytes @ 0x20010400)  returns 0x1A0 (0003ms, 0502ms total)
T0FB8 001:203 JLINK_WriteReg(R0, 0x08000C00)  returns 0x00 (0000ms, 0502ms total)
T0FB8 001:203 JLINK_WriteReg(R1, 0x00000400)  returns 0x00 (0000ms, 0502ms total)
T0FB8 001:203 JLINK_WriteReg(R2, 0x200101A0)  returns 0x00 (0000ms, 0502ms total)
T0FB8 001:203 JLINK_WriteReg(R3, 0x00000000)  returns 0x00 (0000ms, 0502ms total)
T0FB8 001:203 JLINK_WriteReg(R4, 0x00000000)  returns 0x00 (0000ms, 0502ms total)
T0FB8 001:203 JLINK_WriteReg(R5, 0x00000000)  returns 0x00 (0000ms, 0502ms total)
T0FB8 001:203 JLINK_WriteReg(R6, 0x00000000)  returns 0x00 (0000ms, 0502ms total)
T0FB8 001:203 JLINK_WriteReg(R7, 0x00000000)  returns 0x00 (0000ms, 0502ms total)
T0FB8 001:203 JLINK_WriteReg(R8, 0x00000000)  returns 0x00 (0000ms, 0502ms total)
T0FB8 001:203 JLINK_WriteReg(R9, 0x2001019C)  returns 0x00 (0000ms, 0502ms total)
T0FB8 001:203 JLINK_WriteReg(R10, 0x00000000)  returns 0x00 (0000ms, 0502ms total)
T0FB8 001:203 JLINK_WriteReg(R11, 0x00000000)  returns 0x00 (0000ms, 0502ms total)
T0FB8 001:203 JLINK_WriteReg(R12, 0x00000000)  returns 0x00 (0000ms, 0502ms total)
T0FB8 001:203 JLINK_WriteReg(R13 (SP), 0x20011000)  returns 0x00 (0000ms, 0502ms total)
T0FB8 001:203 JLINK_WriteReg(R14, 0x20010001)  returns 0x00 (0000ms, 0502ms total)
T0FB8 001:203 JLINK_WriteReg(R15 (PC), 0x20010112)  returns 0x00 (0000ms, 0502ms total)
T0FB8 001:203 JLINK_WriteReg(XPSR, 0x01000000)  returns 0x00 (0000ms, 0502ms total)
T0FB8 001:203 JLINK_WriteReg(MSP, 0x20011000)  returns 0x00 (0000ms, 0502ms total)
T0FB8 001:203 JLINK_WriteReg(PSP, 0x20011000)  returns 0x00 (0000ms, 0502ms total)
T0FB8 001:203 JLINK_WriteReg(CFBP, 0x00000000)  returns 0x00 (0000ms, 0502ms total)
T0FB8 001:203 JLINK_SetBPEx(Addr = 0x20010000, Type = 0xFFFFFFF2)  returns 0x00000009 (0000ms, 0502ms total)
T0FB8 001:203 JLINK_Go() -- CPU_ReadMem(4 bytes @ 0xE0001000) (0002ms, 0504ms total)
T0FB8 001:205 JLINK_IsHalted()  returns FALSE (0000ms, 0504ms total)
T0FB8 001:207 JLINK_IsHalted()  returns FALSE (0000ms, 0504ms total)
T0FB8 001:209 JLINK_IsHalted()  returns FALSE (0000ms, 0504ms total)
T0FB8 001:211 JLINK_IsHalted()  returns TRUE (0001ms, 0505ms total)
T0FB8 001:212 JLINK_ReadReg(R15 (PC))  returns 0x20010000 (0000ms, 0504ms total)
T0FB8 001:212 JLINK_ClrBPEx(BPHandle = 0x00000009)  returns 0x00 (0000ms, 0504ms total)
T0FB8 001:212 JLINK_ReadReg(R0)  returns 0x00000000 (0000ms, 0504ms total)
T0FB8 001:213 JLINK_WriteMem(0x200101A0, 0x0260 Bytes, ...) - Data: 40 00 00 90 02 E0 00 98 40 1E 00 90 00 98 00 28 ... -- CPU_WriteMem(608 bytes @ 0x200101A0)  returns 0x260 (0004ms, 0508ms total)
T0FB8 001:217 JLINK_WriteMem(0x20010400, 0x01A0 Bytes, ...) - Data: DB E7 10 B5 04 46 0C B9 01 20 10 BD 20 79 20 B9 ... -- CPU_WriteMem(416 bytes @ 0x20010400)  returns 0x1A0 (0002ms, 0510ms total)
T0FB8 001:219 JLINK_WriteReg(R0, 0x08001000)  returns 0x00 (0000ms, 0510ms total)
T0FB8 001:219 JLINK_WriteReg(R1, 0x00000400)  returns 0x00 (0000ms, 0510ms total)
T0FB8 001:219 JLINK_WriteReg(R2, 0x200101A0)  returns 0x00 (0000ms, 0510ms total)
T0FB8 001:219 JLINK_WriteReg(R3, 0x00000000)  returns 0x00 (0001ms, 0511ms total)
T0FB8 001:220 JLINK_WriteReg(R4, 0x00000000)  returns 0x00 (0000ms, 0511ms total)
T0FB8 001:220 JLINK_WriteReg(R5, 0x00000000)  returns 0x00 (0000ms, 0511ms total)
T0FB8 001:220 JLINK_WriteReg(R6, 0x00000000)  returns 0x00 (0000ms, 0511ms total)
T0FB8 001:220 JLINK_WriteReg(R7, 0x00000000)  returns 0x00 (0000ms, 0511ms total)
T0FB8 001:220 JLINK_WriteReg(R8, 0x00000000)  returns 0x00 (0000ms, 0511ms total)
T0FB8 001:220 JLINK_WriteReg(R9, 0x2001019C)  returns 0x00 (0000ms, 0511ms total)
T0FB8 001:220 JLINK_WriteReg(R10, 0x00000000)  returns 0x00 (0000ms, 0511ms total)
T0FB8 001:220 JLINK_WriteReg(R11, 0x00000000)  returns 0x00 (0000ms, 0511ms total)
T0FB8 001:220 JLINK_WriteReg(R12, 0x00000000)  returns 0x00 (0000ms, 0511ms total)
T0FB8 001:220 JLINK_WriteReg(R13 (SP), 0x20011000)  returns 0x00 (0000ms, 0511ms total)
T0FB8 001:220 JLINK_WriteReg(R14, 0x20010001)  returns 0x00 (0000ms, 0511ms total)
T0FB8 001:220 JLINK_WriteReg(R15 (PC), 0x20010112)  returns 0x00 (0000ms, 0511ms total)
T0FB8 001:220 JLINK_WriteReg(XPSR, 0x01000000)  returns 0x00 (0000ms, 0511ms total)
T0FB8 001:220 JLINK_WriteReg(MSP, 0x20011000)  returns 0x00 (0000ms, 0511ms total)
T0FB8 001:220 JLINK_WriteReg(PSP, 0x20011000)  returns 0x00 (0000ms, 0511ms total)
T0FB8 001:220 JLINK_WriteReg(CFBP, 0x00000000)  returns 0x00 (0000ms, 0511ms total)
T0FB8 001:220 JLINK_SetBPEx(Addr = 0x20010000, Type = 0xFFFFFFF2)  returns 0x0000000A (0000ms, 0511ms total)
T0FB8 001:220 JLINK_Go() -- CPU_ReadMem(4 bytes @ 0xE0001000) (0001ms, 0512ms total)
T0FB8 001:221 JLINK_IsHalted()  returns FALSE (0001ms, 0513ms total)
T0FB8 001:224 JLINK_IsHalted()  returns FALSE (0000ms, 0512ms total)
T0FB8 001:226 JLINK_IsHalted()  returns FALSE (0000ms, 0512ms total)
T0FB8 001:228 JLINK_IsHalted()  returns TRUE (0001ms, 0513ms total)
T0FB8 001:229 JLINK_ReadReg(R15 (PC))  returns 0x20010000 (0000ms, 0512ms total)
T0FB8 001:229 JLINK_ClrBPEx(BPHandle = 0x0000000A)  returns 0x00 (0000ms, 0512ms total)
T0FB8 001:229 JLINK_ReadReg(R0)  returns 0x00000000 (0000ms, 0512ms total)
T0FB8 001:230 JLINK_WriteMem(0x200101A0, 0x0260 Bytes, ...) - Data: 60 6D 40 F0 01 00 60 65 94 F8 5C 10 7C 48 88 40 ... -- CPU_WriteMem(608 bytes @ 0x200101A0)  returns 0x260 (0004ms, 0516ms total)
T0FB8 001:234 JLINK_WriteMem(0x20010400, 0x01A0 Bytes, ...) - Data: 20 68 05 68 20 48 05 40 D4 E9 01 01 08 43 E1 68 ... -- CPU_WriteMem(416 bytes @ 0x20010400)  returns 0x1A0 (0003ms, 0519ms total)
T0FB8 001:237 JLINK_WriteReg(R0, 0x08001400)  returns 0x00 (0000ms, 0519ms total)
T0FB8 001:237 JLINK_WriteReg(R1, 0x00000400)  returns 0x00 (0000ms, 0519ms total)
T0FB8 001:237 JLINK_WriteReg(R2, 0x200101A0)  returns 0x00 (0000ms, 0519ms total)
T0FB8 001:237 JLINK_WriteReg(R3, 0x00000000)  returns 0x00 (0000ms, 0519ms total)
T0FB8 001:237 JLINK_WriteReg(R4, 0x00000000)  returns 0x00 (0000ms, 0519ms total)
T0FB8 001:237 JLINK_WriteReg(R5, 0x00000000)  returns 0x00 (0000ms, 0519ms total)
T0FB8 001:237 JLINK_WriteReg(R6, 0x00000000)  returns 0x00 (0000ms, 0519ms total)
T0FB8 001:237 JLINK_WriteReg(R7, 0x00000000)  returns 0x00 (0000ms, 0519ms total)
T0FB8 001:237 JLINK_WriteReg(R8, 0x00000000)  returns 0x00 (0000ms, 0519ms total)
T0FB8 001:237 JLINK_WriteReg(R9, 0x2001019C)  returns 0x00 (0000ms, 0519ms total)
T0FB8 001:237 JLINK_WriteReg(R10, 0x00000000)  returns 0x00 (0000ms, 0519ms total)
T0FB8 001:237 JLINK_WriteReg(R11, 0x00000000)  returns 0x00 (0000ms, 0519ms total)
T0FB8 001:237 JLINK_WriteReg(R12, 0x00000000)  returns 0x00 (0000ms, 0519ms total)
T0FB8 001:237 JLINK_WriteReg(R13 (SP), 0x20011000)  returns 0x00 (0000ms, 0519ms total)
T0FB8 001:237 JLINK_WriteReg(R14, 0x20010001)  returns 0x00 (0000ms, 0519ms total)
T0FB8 001:237 JLINK_WriteReg(R15 (PC), 0x20010112)  returns 0x00 (0000ms, 0519ms total)
T0FB8 001:237 JLINK_WriteReg(XPSR, 0x01000000)  returns 0x00 (0000ms, 0519ms total)
T0FB8 001:237 JLINK_WriteReg(MSP, 0x20011000)  returns 0x00 (0000ms, 0519ms total)
T0FB8 001:237 JLINK_WriteReg(PSP, 0x20011000)  returns 0x00 (0000ms, 0519ms total)
T0FB8 001:237 JLINK_WriteReg(CFBP, 0x00000000)  returns 0x00 (0000ms, 0519ms total)
T0FB8 001:237 JLINK_SetBPEx(Addr = 0x20010000, Type = 0xFFFFFFF2)  returns 0x0000000B (0000ms, 0519ms total)
T0FB8 001:237 JLINK_Go() -- CPU_ReadMem(4 bytes @ 0xE0001000) (0002ms, 0521ms total)
T0FB8 001:239 JLINK_IsHalted()  returns FALSE (0000ms, 0521ms total)
T0FB8 001:251 JLINK_IsHalted()  returns TRUE (0001ms, 0522ms total)
T0FB8 001:252 JLINK_ReadReg(R15 (PC))  returns 0x20010000 (0000ms, 0521ms total)
T0FB8 001:252 JLINK_ClrBPEx(BPHandle = 0x0000000B)  returns 0x00 (0000ms, 0521ms total)
T0FB8 001:252 JLINK_ReadReg(R0)  returns 0x00000000 (0000ms, 0521ms total)
T0FB8 001:253 JLINK_WriteMem(0x200101A0, 0x0260 Bytes, ...) - Data: BE 40 B0 43 1E 79 06 F0 03 06 4F 00 BE 40 30 43 ... -- CPU_WriteMem(608 bytes @ 0x200101A0)  returns 0x260 (0004ms, 0525ms total)
T0FB8 001:257 JLINK_WriteMem(0x20010400, 0x01A0 Bytes, ...) - Data: 00 F0 18 F8 00 22 11 46 90 1E 00 F0 13 F8 00 22 ... -- CPU_WriteMem(416 bytes @ 0x20010400)  returns 0x1A0 (0003ms, 0528ms total)
T0FB8 001:260 JLINK_WriteReg(R0, 0x08001800)  returns 0x00 (0000ms, 0528ms total)
T0FB8 001:260 JLINK_WriteReg(R1, 0x00000400)  returns 0x00 (0000ms, 0528ms total)
T0FB8 001:260 JLINK_WriteReg(R2, 0x200101A0)  returns 0x00 (0000ms, 0528ms total)
T0FB8 001:260 JLINK_WriteReg(R3, 0x00000000)  returns 0x00 (0000ms, 0528ms total)
T0FB8 001:260 JLINK_WriteReg(R4, 0x00000000)  returns 0x00 (0000ms, 0528ms total)
T0FB8 001:260 JLINK_WriteReg(R5, 0x00000000)  returns 0x00 (0000ms, 0528ms total)
T0FB8 001:260 JLINK_WriteReg(R6, 0x00000000)  returns 0x00 (0000ms, 0528ms total)
T0FB8 001:260 JLINK_WriteReg(R7, 0x00000000)  returns 0x00 (0000ms, 0528ms total)
T0FB8 001:260 JLINK_WriteReg(R8, 0x00000000)  returns 0x00 (0000ms, 0528ms total)
T0FB8 001:260 JLINK_WriteReg(R9, 0x2001019C)  returns 0x00 (0000ms, 0528ms total)
T0FB8 001:260 JLINK_WriteReg(R10, 0x00000000)  returns 0x00 (0000ms, 0528ms total)
T0FB8 001:260 JLINK_WriteReg(R11, 0x00000000)  returns 0x00 (0000ms, 0528ms total)
T0FB8 001:260 JLINK_WriteReg(R12, 0x00000000)  returns 0x00 (0000ms, 0528ms total)
T0FB8 001:260 JLINK_WriteReg(R13 (SP), 0x20011000)  returns 0x00 (0000ms, 0528ms total)
T0FB8 001:260 JLINK_WriteReg(R14, 0x20010001)  returns 0x00 (0000ms, 0528ms total)
T0FB8 001:260 JLINK_WriteReg(R15 (PC), 0x20010112)  returns 0x00 (0000ms, 0528ms total)
T0FB8 001:260 JLINK_WriteReg(XPSR, 0x01000000)  returns 0x00 (0000ms, 0528ms total)
T0FB8 001:260 JLINK_WriteReg(MSP, 0x20011000)  returns 0x00 (0000ms, 0528ms total)
T0FB8 001:260 JLINK_WriteReg(PSP, 0x20011000)  returns 0x00 (0000ms, 0528ms total)
T0FB8 001:260 JLINK_WriteReg(CFBP, 0x00000000)  returns 0x00 (0000ms, 0528ms total)
T0FB8 001:260 JLINK_SetBPEx(Addr = 0x20010000, Type = 0xFFFFFFF2)  returns 0x0000000C (0000ms, 0528ms total)
T0FB8 001:260 JLINK_Go() -- CPU_ReadMem(4 bytes @ 0xE0001000) (0002ms, 0530ms total)
T0FB8 001:262 JLINK_IsHalted()  returns FALSE (0000ms, 0530ms total)
T0FB8 001:264 JLINK_IsHalted()  returns FALSE (0000ms, 0530ms total)
T0FB8 001:266 JLINK_IsHalted()  returns FALSE (0000ms, 0530ms total)
T0FB8 001:268 JLINK_IsHalted()  returns TRUE (0001ms, 0531ms total)
T0FB8 001:269 JLINK_ReadReg(R15 (PC))  returns 0x20010000 (0000ms, 0530ms total)
T0FB8 001:269 JLINK_ClrBPEx(BPHandle = 0x0000000C)  returns 0x00 (0000ms, 0530ms total)
T0FB8 001:269 JLINK_ReadReg(R0)  returns 0x00000000 (0000ms, 0530ms total)
T0FB8 001:270 JLINK_WriteMem(0x200101A0, 0x0260 Bytes, ...) - Data: 4F F0 01 08 20 68 00 F4 00 20 B0 F5 00 2F 13 D1 ... -- CPU_WriteMem(608 bytes @ 0x200101A0)  returns 0x260 (0004ms, 0534ms total)
T0FB8 001:274 JLINK_WriteMem(0x20010400, 0x01A0 Bytes, ...) - Data: 5E 48 88 30 00 68 20 F0 0C 00 A1 6C 08 43 5B 49 ... -- CPU_WriteMem(416 bytes @ 0x20010400)  returns 0x1A0 (0002ms, 0536ms total)
T0FB8 001:276 JLINK_WriteReg(R0, 0x08001C00)  returns 0x00 (0000ms, 0536ms total)
T0FB8 001:276 JLINK_WriteReg(R1, 0x00000400)  returns 0x00 (0000ms, 0536ms total)
T0FB8 001:276 JLINK_WriteReg(R2, 0x200101A0)  returns 0x00 (0000ms, 0536ms total)
T0FB8 001:276 JLINK_WriteReg(R3, 0x00000000)  returns 0x00 (0000ms, 0536ms total)
T0FB8 001:276 JLINK_WriteReg(R4, 0x00000000)  returns 0x00 (0000ms, 0536ms total)
T0FB8 001:276 JLINK_WriteReg(R5, 0x00000000)  returns 0x00 (0001ms, 0537ms total)
T0FB8 001:277 JLINK_WriteReg(R6, 0x00000000)  returns 0x00 (0000ms, 0537ms total)
T0FB8 001:277 JLINK_WriteReg(R7, 0x00000000)  returns 0x00 (0000ms, 0537ms total)
T0FB8 001:277 JLINK_WriteReg(R8, 0x00000000)  returns 0x00 (0000ms, 0537ms total)
T0FB8 001:277 JLINK_WriteReg(R9, 0x2001019C)  returns 0x00 (0000ms, 0537ms total)
T0FB8 001:277 JLINK_WriteReg(R10, 0x00000000)  returns 0x00 (0000ms, 0537ms total)
T0FB8 001:277 JLINK_WriteReg(R11, 0x00000000)  returns 0x00 (0000ms, 0537ms total)
T0FB8 001:277 JLINK_WriteReg(R12, 0x00000000)  returns 0x00 (0000ms, 0537ms total)
